time	I(C1)	I(L1)	I(R1)
0.000000000000000e+00	0.000000e+00	0.000000e+00	0.000000e+00
9.163503650774069e-05	2.878514e-03	-4.522293e-10	-2.878513e-03
1.832700730154814e-04	5.756449e-03	2.840866e-12	-5.756449e-03
2.749051095232221e-04	8.633806e-03	1.365211e-09	-8.633806e-03
3.665401460309628e-04	1.151058e-02	3.634880e-09	-1.151059e-02
4.581751825387035e-04	1.438678e-02	6.811848e-09	-1.438679e-02
5.498102190464441e-04	1.726240e-02	1.089612e-08	-1.726241e-02
6.414452555541846e-04	2.013744e-02	1.588768e-08	-2.013746e-02
7.997436754676583e-04	2.510266e-02	3.077685e-08	-2.510269e-02
9.971253768819598e-04	3.129132e-02	5.961574e-08	-3.129138e-02
1.243385981695759e-03	3.900870e-02	1.155057e-07	-3.900881e-02
1.550589826754272e-03	4.862994e-02	2.238056e-07	-4.863016e-02
1.934014683794144e-03	6.062893e-02	4.337628e-07	-6.062937e-02
2.412629222610750e-03	7.559207e-02	8.408379e-07	-7.559291e-02
3.010395228007223e-03	9.425703e-02	1.630499e-06	-9.425867e-02
3.757261192719452e-03	1.175408e-01	3.162834e-06	-1.175440e-01
4.691090059990519e-03	1.465949e-01	6.138298e-06	-1.466010e-01
5.859529611412486e-03	1.828552e-01	1.191978e-05	-1.828671e-01
7.323070930100751e-03	2.281239e-01	2.316442e-05	-2.281470e-01
9.158506934281810e-03	2.846668e-01	4.453402e-05	-2.847113e-01
1.111163193428181e-02	3.445541e-01	7.766960e-05	-3.446318e-01
1.306475693428181e-02	4.041319e-01	1.238609e-04	-4.042558e-01
1.501788193428181e-02	4.633858e-01	1.853967e-04	-4.635712e-01
1.697100693428181e-02	5.223057e-01	2.643615e-04	-5.225701e-01
1.892413193428181e-02	5.808819e-01	3.627858e-04	-5.812447e-01
2.087725693428181e-02	6.391047e-01	4.826470e-04	-6.395873e-01
2.283038193428181e-02	6.969644e-01	6.258701e-04	-6.975902e-01
2.478350693428181e-02	7.544516e-01	7.943283e-04	-7.552459e-01
2.673663193428181e-02	8.115568e-01	9.898434e-04	-8.125467e-01
2.868975693428181e-02	8.682709e-01	1.214187e-03	-8.694850e-01
3.064288193428181e-02	9.245845e-01	1.469080e-03	-9.260536e-01
3.259600693428181e-02	9.804887e-01	1.756195e-03	-9.822449e-01
3.454913193428181e-02	1.035975e+00	2.077154e-03	-1.038052e+00
3.650225693428181e-02	1.091033e+00	2.433533e-03	-1.093466e+00
3.845538193428181e-02	1.145655e+00	2.826858e-03	-1.148482e+00
4.040850693428181e-02	1.199833e+00	3.258611e-03	-1.203092e+00
4.236163193428181e-02	1.253558e+00	3.730224e-03	-1.257288e+00
4.431475693428181e-02	1.306821e+00	4.243085e-03	-1.311064e+00
4.626788193428181e-02	1.359614e+00	4.798537e-03	-1.364412e+00
4.822100693428181e-02	1.411929e+00	5.397877e-03	-1.417327e+00
5.017413193428181e-02	1.463758e+00	6.042358e-03	-1.469800e+00
5.212725693428181e-02	1.515092e+00	6.733189e-03	-1.521826e+00
5.408038193428181e-02	1.565925e+00	7.471536e-03	-1.573397e+00
5.603350693428181e-02	1.616248e+00	8.258523e-03	-1.624506e+00
5.798663193428181e-02	1.666053e+00	9.095231e-03	-1.675149e+00
5.993975693428181e-02	1.715334e+00	9.982700e-03	-1.725317e+00
6.384600693428180e-02	1.812291e+00	1.191387e-02	-1.824204e+00
6.775225693428180e-02	1.907060e+00	1.405953e-02	-1.921119e+00
7.165850693428180e-02	1.999586e+00	1.642655e-02	-2.016012e+00
7.556475693428180e-02	2.089814e+00	1.902117e-02	-2.108835e+00
7.947100693428180e-02	2.177692e+00	2.184902e-02	-2.199541e+00
8.337725693428180e-02	2.263169e+00	2.491517e-02	-2.288085e+00
8.923663193428180e-02	2.386777e+00	2.997081e-02	-2.416748e+00
9.509600693428180e-02	2.504718e+00	3.558526e-02	-2.540303e+00
1.009553819342818e-01	2.616843e+00	4.176855e-02	-2.658611e+00
1.068147569342818e-01	2.723015e+00	4.852803e-02	-2.771543e+00
1.160223462199961e-01	2.878267e+00	6.039095e-02	-2.938658e+00
1.252299355057104e-01	3.017263e+00	7.364003e-02	-3.090903e+00
1.344375247914247e-01	3.140002e+00	8.827529e-02	-3.228277e+00
1.436451140771390e-01	3.246485e+00	1.042967e-01	-3.350781e+00
1.528527033628533e-01	3.336711e+00	1.217043e-01	-3.458416e+00
1.620602926485675e-01	3.410682e+00	1.404981e-01	-3.551180e+00
1.712678819342818e-01	3.468396e+00	1.606780e-01	-3.629074e+00
1.824285962199961e-01	3.514273e+00	1.870805e-01	-3.701354e+00
1.935893105057104e-01	3.535860e+00	2.147302e-01	-3.750590e+00
2.047500247914247e-01	3.533157e+00	2.436270e-01	-3.776784e+00
2.159107390771390e-01	3.506165e+00	2.737710e-01	-3.779936e+00
2.270714533628533e-01	3.454883e+00	3.051622e-01	-3.760045e+00
2.382321676485675e-01	3.379311e+00	3.378006e-01	-3.717112e+00
2.493928819342818e-01	3.279449e+00	3.716862e-01	-3.651136e+00
2.625067212199961e-01	3.130063e+00	4.125852e-01	-3.542648e+00
2.756205605057104e-01	2.955152e+00	4.530373e-01	-3.408189e+00
2.887343997914247e-01	2.754715e+00	4.930422e-01	-3.247757e+00
3.018482390771389e-01	2.528752e+00	5.326002e-01	-3.061352e+00
3.149620783628532e-01	2.277265e+00	5.717111e-01	-2.848976e+00
3.280759176485675e-01	2.000252e+00	6.103751e-01	-2.610627e+00
3.411897569342818e-01	1.697713e+00	6.485919e-01	-2.346305e+00
3.487232390771389e-01	1.517071e+00	6.694404e-01	-2.186512e+00
3.562567212199961e-01	1.332053e+00	6.895168e-01	-2.021570e+00
3.637902033628532e-01	1.142658e+00	7.088211e-01	-1.851479e+00
3.713236855057104e-01	9.488871e-01	7.273533e-01	-1.676240e+00
3.788571676485675e-01	7.507394e-01	7.451134e-01	-1.495853e+00
3.863906497914247e-01	5.482153e-01	7.621015e-01	-1.310317e+00
3.939241319342818e-01	3.413147e-01	7.783175e-01	-1.119632e+00
3.975513640771389e-01	2.411690e-01	7.857261e-01	-1.026895e+00
4.011785962199961e-01	1.406133e-01	7.928906e-01	-9.335039e-01
4.048058283628532e-01	3.964746e-02	7.998111e-01	-8.394586e-01
4.084330605057104e-01	-6.172847e-02	8.064875e-01	-7.447590e-01
4.120602926485675e-01	-1.635145e-01	8.129198e-01	-6.494053e-01
4.156875247914246e-01	-2.657106e-01	8.191081e-01	-5.533975e-01
4.193147569342818e-01	-3.683168e-01	8.250523e-01	-4.567355e-01
4.218259176485675e-01	-4.394249e-01	8.290089e-01	-3.895840e-01
4.243370783628532e-01	-5.105647e-01	8.328346e-01	-3.222698e-01
4.268482390771389e-01	-5.817363e-01	8.365292e-01	-2.547930e-01
4.293593997914246e-01	-6.529394e-01	8.400929e-01	-1.871535e-01
4.318705605057104e-01	-7.241743e-01	8.435257e-01	-1.193513e-01
4.343817212199961e-01	-7.954409e-01	8.468274e-01	-5.138646e-02
4.368928819342818e-01	-8.667392e-01	8.499982e-01	1.674106e-02
4.416361855057103e-01	-1.001530e+00	8.556275e-01	1.459029e-01
4.463794890771389e-01	-1.135742e+00	8.607429e-01	2.749988e-01
4.511227926485675e-01	-1.269373e+00	8.653445e-01	4.040287e-01
4.558660962199961e-01	-1.402425e+00	8.694322e-01	5.329927e-01
4.606093997914246e-01	-1.534897e+00	8.730059e-01	6.618907e-01
4.653527033628532e-01	-1.666789e+00	8.760658e-01	7.907228e-01
4.700960069342818e-01	-1.798101e+00	8.786118e-01	9.194889e-01
4.731652033628532e-01	-1.882405e+00	8.799645e-01	1.002441e+00
4.762343997914246e-01	-1.966163e+00	8.810873e-01	1.085076e+00
4.793035962199961e-01	-2.049375e+00	8.819804e-01	1.167394e+00
4.823727926485675e-01	-2.132040e+00	8.826435e-01	1.249396e+00
4.854419890771389e-01	-2.214158e+00	8.830769e-01	1.331081e+00
4.885111855057104e-01	-2.295729e+00	8.832803e-01	1.412449e+00
4.915803819342818e-01	-2.376754e+00	8.832540e-01	1.493500e+00
4.943705605057103e-01	-2.449824e+00	8.830257e-01	1.566798e+00
4.971607390771389e-01	-2.522263e+00	8.826025e-01	1.639660e+00
4.999509176485675e-01	-2.594071e+00	8.819842e-01	1.712087e+00
5.027410962199961e-01	-2.665248e+00	8.811708e-01	1.784077e+00
5.055312747914247e-01	-2.735795e+00	8.801625e-01	1.855633e+00
5.083214533628532e-01	-2.805711e+00	8.789590e-01	1.926752e+00
5.111116319342818e-01	-2.874997e+00	8.775606e-01	1.997436e+00
5.189241319342818e-01	-3.066099e+00	8.725789e-01	2.193520e+00
5.267366319342818e-01	-3.249976e+00	8.660702e-01	2.383906e+00
5.345491319342818e-01	-3.426630e+00	8.580346e-01	2.568595e+00
5.423616319342818e-01	-3.596059e+00	8.484721e-01	2.747587e+00
5.501741319342818e-01	-3.758264e+00	8.373826e-01	2.920882e+00
5.579866319342818e-01	-3.913245e+00	8.247661e-01	3.088479e+00
5.657991319342818e-01	-4.061001e+00	8.106227e-01	3.250379e+00
5.772388640771389e-01	-4.262106e+00	7.869904e-01	3.475116e+00
5.886785962199961e-01	-4.441269e+00	7.605692e-01	3.680700e+00
6.001183283628532e-01	-4.598490e+00	7.313593e-01	3.867131e+00
6.115580605057104e-01	-4.733769e+00	6.993604e-01	4.034409e+00
6.229977926485675e-01	-4.847107e+00	6.645727e-01	4.182534e+00
6.344375247914247e-01	-4.938502e+00	6.269962e-01	4.311506e+00
6.458772569342818e-01	-5.007956e+00	5.866308e-01	4.421325e+00
6.514576140771389e-01	-5.032263e+00	5.662194e-01	4.466044e+00
6.570379712199961e-01	-5.050739e+00	5.453491e-01	4.505390e+00
6.626183283628532e-01	-5.063385e+00	5.240199e-01	4.539364e+00
6.681986855057104e-01	-5.070199e+00	5.022318e-01	4.567967e+00
6.737790426485675e-01	-5.071182e+00	4.799848e-01	4.591197e+00
6.793593997914247e-01	-5.066334e+00	4.572789e-01	4.609055e+00
6.849397569342818e-01	-5.055655e+00	4.341142e-01	4.621541e+00
6.907991319342818e-01	-5.038109e+00	4.094511e-01	4.628658e+00
6.969375247914247e-01	-5.012688e+00	3.831127e-01	4.629576e+00
7.030759176485675e-01	-4.980359e+00	3.564796e-01	4.623879e+00
7.092143105057104e-01	-4.941121e+00	3.295519e-01	4.611569e+00
7.153527033628532e-01	-4.894975e+00	3.023295e-01	4.592646e+00
7.214910962199961e-01	-4.841921e+00	2.748124e-01	4.567108e+00
7.276294890771390e-01	-4.781958e+00	2.470007e-01	4.534957e+00
7.337678819342818e-01	-4.715087e+00	2.188943e-01	4.496192e+00
7.399062747914247e-01	-4.641416e+00	1.906189e-01	4.450796e+00
7.460446676485675e-01	-4.561503e+00	1.623147e-01	4.399188e+00
7.521830605057104e-01	-4.475349e+00	1.339816e-01	4.341368e+00
7.583214533628532e-01	-4.382955e+00	1.056196e-01	4.277335e+00
7.644598462199961e-01	-4.284319e+00	7.722881e-02	4.207090e+00
7.705982390771390e-01	-4.179441e+00	4.880911e-02	4.130632e+00
7.767366319342818e-01	-4.068323e+00	2.036055e-02	4.047962e+00
7.806428819342818e-01	-3.994826e+00	2.372348e-03	3.992454e+00
7.865022569342818e-01	-3.880315e+00	-2.450638e-02	3.904821e+00
7.934777033628532e-01	-3.736763e+00	-5.643916e-02	3.793202e+00
8.004531497914247e-01	-3.587141e+00	-8.795779e-02	3.675099e+00
8.074285962199961e-01	-3.431448e+00	-1.190622e-01	3.550511e+00
8.144040426485675e-01	-3.269685e+00	-1.497525e-01	3.419438e+00
8.213794890771389e-01	-3.101852e+00	-1.800287e-01	3.281881e+00
8.283549355057104e-01	-2.927948e+00	-2.098907e-01	3.137839e+00
8.353303819342818e-01	-2.747974e+00	-2.393385e-01	2.987313e+00
8.450960069342818e-01	-2.486267e+00	-2.796684e-01	2.765935e+00
8.548616319342818e-01	-2.218347e+00	-3.183531e-01	2.536700e+00
8.646272569342818e-01	-1.944215e+00	-3.553927e-01	2.299608e+00
8.743928819342818e-01	-1.663871e+00	-3.907872e-01	2.054658e+00
8.841585069342818e-01	-1.377314e+00	-4.245364e-01	1.801850e+00
8.939241319342818e-01	-1.084544e+00	-4.566406e-01	1.541185e+00
9.036897569342818e-01	-7.855623e-01	-4.870995e-01	1.272662e+00
9.073169890771389e-01	-6.746567e-01	-4.977946e-01	1.172451e+00
9.109442212199961e-01	-5.636091e-01	-5.081897e-01	1.071799e+00
9.145714533628532e-01	-4.524195e-01	-5.182846e-01	9.707042e-01
9.181986855057104e-01	-3.410880e-01	-5.280795e-01	8.691675e-01
9.218259176485675e-01	-2.296144e-01	-5.375743e-01	7.671887e-01
9.254531497914247e-01	-1.179988e-01	-5.467689e-01	6.647678e-01
9.290803819342818e-01	-6.241265e-03	-5.556635e-01	5.619048e-01
9.318705605057104e-01	7.964499e-02	-5.622863e-01	4.826413e-01
9.346607390771389e-01	1.654062e-01	-5.687159e-01	4.033097e-01
9.374509176485675e-01	2.510424e-01	-5.749525e-01	3.239101e-01
9.402410962199961e-01	3.365536e-01	-5.809960e-01	2.444424e-01
9.430312747914247e-01	4.219398e-01	-5.868465e-01	1.649066e-01
9.458214533628532e-01	5.072010e-01	-5.925038e-01	8.530286e-02
9.486116319342818e-01	5.923371e-01	-5.979681e-01	5.631016e-03
9.525178819342818e-01	7.112435e-01	-6.052866e-01	-1.059569e-01
9.564241319342818e-01	8.294823e-01	-6.122030e-01	-2.172792e-01
9.603303819342818e-01	9.470534e-01	-6.187173e-01	-3.283361e-01
9.642366319342818e-01	1.063957e+00	-6.248295e-01	-4.391274e-01
9.681428819342818e-01	1.180193e+00	-6.305396e-01	-5.496533e-01
9.720491319342818e-01	1.295761e+00	-6.358476e-01	-6.599136e-01
9.759553819342818e-01	1.410662e+00	-6.407535e-01	-7.699084e-01
9.793035962199961e-01	1.508383e+00	-6.446266e-01	-8.637569e-01
9.826518105057104e-01	1.605290e+00	-6.481922e-01	-9.570974e-01
9.860000247914247e-01	1.701381e+00	-6.514505e-01	-1.049930e+00
9.893482390771389e-01	1.796656e+00	-6.544015e-01	-1.142255e+00
9.926964533628532e-01	1.891117e+00	-6.570450e-01	-1.234072e+00
9.960446676485675e-01	1.984762e+00	-6.593812e-01	-1.325381e+00
9.993928819342818e-01	2.077592e+00	-6.614100e-01	-1.416182e+00
1.002462078362853e+00	2.161825e+00	-6.629952e-01	-1.498830e+00
1.005531274791425e+00	2.245145e+00	-6.643186e-01	-1.580827e+00
1.008600471219996e+00	2.327553e+00	-6.653802e-01	-1.662173e+00
1.011669667648567e+00	2.409049e+00	-6.661800e-01	-1.742869e+00
1.014738864077139e+00	2.489632e+00	-6.667180e-01	-1.822914e+00
1.017808060505710e+00	2.569302e+00	-6.669942e-01	-1.902308e+00
1.020877256934282e+00	2.648061e+00	-6.670086e-01	-1.981052e+00
1.026457614077139e+00	2.788898e+00	-6.663530e-01	-2.122545e+00
1.032037971219996e+00	2.925806e+00	-6.648438e-01	-2.260962e+00
1.037618328362853e+00	3.058785e+00	-6.624811e-01	-2.396304e+00
1.043198685505710e+00	3.187835e+00	-6.592649e-01	-2.528570e+00
1.048779042648568e+00	3.312957e+00	-6.551952e-01	-2.657761e+00
1.054359399791425e+00	3.434149e+00	-6.502720e-01	-2.783877e+00
1.059939756934282e+00	3.551412e+00	-6.444953e-01	-2.906917e+00
1.070821453362853e+00	3.768309e+00	-6.306116e-01	-3.137697e+00
1.081703149791425e+00	3.965284e+00	-6.138871e-01	-3.351397e+00
1.092584846219996e+00	4.142336e+00	-5.943218e-01	-3.548014e+00
1.103466542648568e+00	4.299466e+00	-5.719155e-01	-3.727550e+00
1.114348239077139e+00	4.436673e+00	-5.466684e-01	-3.890004e+00
1.125229935505710e+00	4.553958e+00	-5.185805e-01	-4.035377e+00
1.136111631934282e+00	4.651320e+00	-4.876517e-01	-4.163668e+00
1.141412971219996e+00	4.690046e+00	-4.718016e-01	-4.218244e+00
1.146714310505710e+00	4.723438e+00	-4.554505e-01	-4.267987e+00
1.152015649791425e+00	4.751497e+00	-4.385985e-01	-4.312899e+00
1.157316989077139e+00	4.774223e+00	-4.212454e-01	-4.352978e+00
1.162618328362853e+00	4.791616e+00	-4.033914e-01	-4.388225e+00
1.167919667648568e+00	4.803676e+00	-3.850363e-01	-4.418639e+00
1.173221006934282e+00	4.810402e+00	-3.661803e-01	-4.444222e+00
1.176011185505710e+00	4.811748e+00	-3.561005e-01	-4.455648e+00
1.178801364077139e+00	4.811603e+00	-3.459132e-01	-4.465690e+00
1.181591542648568e+00	4.809967e+00	-3.356182e-01	-4.474349e+00
1.184381721219996e+00	4.806840e+00	-3.252156e-01	-4.481624e+00
1.187171899791425e+00	4.802221e+00	-3.147053e-01	-4.487516e+00
1.189962078362853e+00	4.796112e+00	-3.040875e-01	-4.492025e+00
1.192752256934282e+00	4.788512e+00	-2.933620e-01	-4.495150e+00
1.200843774791425e+00	4.757689e+00	-2.615328e-01	-4.496156e+00
1.208935292648568e+00	4.714841e+00	-2.291961e-01	-4.485645e+00
1.217026810505710e+00	4.659967e+00	-1.963519e-01	-4.463616e+00
1.225118328362853e+00	4.593069e+00	-1.630003e-01	-4.430069e+00
1.233209846219996e+00	4.514145e+00	-1.291413e-01	-4.385004e+00
1.241301364077139e+00	4.423196e+00	-9.477478e-02	-4.328421e+00
1.249392881934282e+00	4.320221e+00	-5.990081e-02	-4.260321e+00
1.263064756934282e+00	4.121618e+00	-9.548122e-04	-4.120664e+00
1.266971006934282e+00	4.059073e+00	1.595298e-02	-4.075026e+00
1.270877256934282e+00	3.994166e+00	3.283414e-02	-4.027000e+00
1.274783506934282e+00	3.926898e+00	4.968867e-02	-3.976586e+00
1.278689756934282e+00	3.857267e+00	6.651656e-02	-3.923784e+00
1.282596006934282e+00	3.785275e+00	8.331782e-02	-3.868593e+00
1.286502256934282e+00	3.710921e+00	1.000924e-01	-3.811014e+00
1.290408506934282e+00	3.634206e+00	1.168404e-01	-3.751046e+00
1.300174131934282e+00	3.430942e+00	1.587285e-01	-3.589670e+00
1.309939756934282e+00	3.216804e+00	1.996876e-01	-3.416492e+00
1.319705381934282e+00	2.991792e+00	2.397176e-01	-3.231510e+00
1.329471006934282e+00	2.755905e+00	2.788187e-01	-3.034724e+00
1.339236631934282e+00	2.509145e+00	3.169907e-01	-2.826135e+00
1.349002256934282e+00	2.251510e+00	3.542337e-01	-2.605743e+00
1.358767881934282e+00	1.983000e+00	3.905477e-01	-2.373548e+00
1.366580381934282e+00	1.763159e+00	4.184311e-01	-2.181591e+00
1.374392881934282e+00	1.540385e+00	4.451755e-01	-1.985560e+00
1.382205381934282e+00	1.314676e+00	4.707809e-01	-1.785457e+00
1.390017881934282e+00	1.086034e+00	4.952471e-01	-1.581281e+00
1.397830381934282e+00	8.544573e-01	5.185744e-01	-1.373032e+00
1.405642881934282e+00	6.199469e-01	5.407626e-01	-1.160710e+00
1.413455381934282e+00	3.825026e-01	5.618117e-01	-9.443143e-01
1.417082614077139e+00	2.724009e-01	5.710774e-01	-8.434783e-01
1.420709846219996e+00	1.622916e-01	5.800393e-01	-7.423309e-01
1.424337078362853e+00	5.217479e-02	5.886975e-01	-6.408723e-01
1.427964310505710e+00	-5.794955e-02	5.970520e-01	-5.391025e-01
1.431591542648568e+00	-1.680814e-01	6.051028e-01	-4.370213e-01
1.435218774791425e+00	-2.782208e-01	6.128498e-01	-3.346289e-01
1.438846006934282e+00	-3.883678e-01	6.202931e-01	-2.319253e-01
1.441357167648568e+00	-4.644616e-01	6.252553e-01	-1.607937e-01
1.443868328362853e+00	-5.403967e-01	6.300607e-01	-8.966407e-02
1.446379489077139e+00	-6.161729e-01	6.347094e-01	-1.853652e-02
1.448890649791425e+00	-6.917904e-01	6.392014e-01	5.258899e-02
1.451401810505710e+00	-7.672491e-01	6.435366e-01	1.237125e-01
1.453912971219996e+00	-8.425491e-01	6.477151e-01	1.948339e-01
1.456424131934282e+00	-9.176902e-01	6.517369e-01	2.659533e-01
1.462283506934282e+00	-1.092581e+00	6.605110e-01	4.320699e-01
1.468142881934282e+00	-1.265433e+00	6.683756e-01	5.970572e-01
1.474002256934282e+00	-1.436246e+00	6.753308e-01	7.609152e-01
1.479861631934282e+00	-1.605020e+00	6.813765e-01	9.236439e-01
1.485721006934282e+00	-1.771756e+00	6.865128e-01	1.085243e+00
1.491580381934282e+00	-1.936453e+00	6.907396e-01	1.245713e+00
1.497439756934282e+00	-2.099111e+00	6.940570e-01	1.405054e+00
1.500229935505710e+00	-2.175373e+00	6.953004e-01	1.480072e+00
1.503020114077139e+00	-2.250912e+00	6.963313e-01	1.554581e+00
1.505810292648568e+00	-2.325730e+00	6.971496e-01	1.628580e+00
1.508600471219996e+00	-2.399825e+00	6.977554e-01	1.702070e+00
1.511390649791425e+00	-2.473198e+00	6.981487e-01	1.775050e+00
1.514180828362853e+00	-2.545850e+00	6.983294e-01	1.847520e+00
1.516971006934282e+00	-2.617779e+00	6.982976e-01	1.919482e+00
1.522830381934282e+00	-2.766548e+00	6.975267e-01	2.069021e+00
1.528689756934282e+00	-2.911110e+00	6.958268e-01	2.215284e+00
1.534549131934282e+00	-3.051466e+00	6.931979e-01	2.358268e+00
1.540408506934282e+00	-3.187614e+00	6.896402e-01	2.497974e+00
1.546267881934282e+00	-3.319556e+00	6.851535e-01	2.634402e+00
1.552127256934282e+00	-3.447290e+00	6.797378e-01	2.767552e+00
1.557986631934282e+00	-3.570818e+00	6.733932e-01	2.897425e+00
1.569147346219996e+00	-3.793864e+00	6.585599e-01	3.135304e+00
1.580308060505710e+00	-3.996122e+00	6.407709e-01	3.355351e+00
1.591468774791425e+00	-4.177592e+00	6.200262e-01	3.557566e+00
1.602629489077139e+00	-4.338275e+00	5.963258e-01	3.741950e+00
1.613790203362853e+00	-4.478171e+00	5.696698e-01	3.908501e+00
1.624950917648568e+00	-4.597279e+00	5.400581e-01	4.057221e+00
1.636111631934282e+00	-4.695600e+00	5.074908e-01	4.188109e+00
1.641691989077139e+00	-4.735283e+00	4.903646e-01	4.244918e+00
1.647272346219996e+00	-4.769071e+00	4.726958e-01	4.296375e+00
1.652852703362853e+00	-4.796965e+00	4.544845e-01	4.342481e+00
1.658433060505710e+00	-4.818965e+00	4.357307e-01	4.383234e+00
1.664013417648568e+00	-4.835070e+00	4.164343e-01	4.418636e+00
1.669593774791425e+00	-4.845281e+00	3.965953e-01	4.448686e+00
1.675174131934282e+00	-4.849598e+00	3.762138e-01	4.473384e+00
1.677964310505710e+00	-4.849491e+00	3.658705e-01	4.483620e+00
1.680754489077139e+00	-4.847898e+00	3.554237e-01	4.492474e+00
1.683544667648568e+00	-4.844819e+00	3.448734e-01	4.499946e+00
1.686334846219996e+00	-4.840254e+00	3.342197e-01	4.506035e+00
1.689125024791425e+00	-4.834204e+00	3.234626e-01	4.510741e+00
1.691915203362853e+00	-4.826667e+00	3.126020e-01	4.514065e+00
1.694705381934282e+00	-4.817645e+00	3.016380e-01	4.516007e+00
1.702796899791425e+00	-4.782718e+00	2.691410e-01	4.513578e+00
