time	I(C1)**2	I(L1)**2	I(R1)**2
0.000000000000000e+00	0.000000e+00	0.000000e+00	0.000000e+00
9.163503650774069e-05	8.285843e-06	2.045113e-19	8.285839e-06
1.832700730154814e-04	3.313671e-05	8.070519e-24	3.313670e-05
2.749051095232221e-04	7.454260e-05	1.863800e-18	7.454261e-05
3.665401460309628e-04	1.324935e-04	1.321235e-17	1.324936e-04
4.581751825387035e-04	2.069795e-04	4.640128e-17	2.069797e-04
5.498102190464441e-04	2.979905e-04	1.187254e-16	2.979909e-04
6.414452555541846e-04	4.055166e-04	2.524185e-16	4.055173e-04
7.997436754676583e-04	6.301435e-04	9.472145e-16	6.301450e-04
9.971253768819598e-04	9.791468e-04	3.554036e-15	9.791505e-04
1.243385981695759e-03	1.521678e-03	1.334158e-14	1.521687e-03
1.550589826754272e-03	2.364871e-03	5.008893e-14	2.364892e-03
1.934014683794144e-03	3.675867e-03	1.881502e-13	3.675920e-03
2.412629222610750e-03	5.714161e-03	7.070084e-13	5.714288e-03
3.010395228007223e-03	8.884389e-03	2.658527e-12	8.884696e-03
3.757261192719452e-03	1.381584e-02	1.000352e-11	1.381659e-02
4.691090059990519e-03	2.149006e-02	3.767870e-11	2.149186e-02
5.859529611412486e-03	3.343601e-02	1.420813e-10	3.344037e-02
7.323070930100751e-03	5.204050e-02	5.365906e-10	5.205107e-02
9.158506934281810e-03	8.103519e-02	1.983279e-09	8.106054e-02
1.111163193428181e-02	1.187175e-01	6.032567e-09	1.187711e-01
1.306475693428181e-02	1.633226e-01	1.534151e-08	1.634227e-01
1.501788193428181e-02	2.147264e-01	3.437195e-08	2.148982e-01
1.697100693428181e-02	2.728033e-01	6.988700e-08	2.730795e-01
1.892413193428181e-02	3.374238e-01	1.316135e-07	3.378454e-01
2.087725693428181e-02	4.084548e-01	2.329481e-07	4.090720e-01
2.283038193428181e-02	4.857594e-01	3.917134e-07	4.866321e-01
2.478350693428181e-02	5.691972e-01	6.309574e-07	5.703964e-01
2.673663193428181e-02	6.586245e-01	9.797899e-07	6.602321e-01
2.868975693428181e-02	7.538943e-01	1.474250e-06	7.560042e-01
3.064288193428181e-02	8.548565e-01	2.158196e-06	8.575752e-01
3.259600693428181e-02	9.613581e-01	3.084220e-06	9.648051e-01
3.454913193428181e-02	1.073243e+00	4.314568e-06	1.077551e+00
3.650225693428181e-02	1.190353e+00	5.922082e-06	1.195669e+00
3.845538193428181e-02	1.312526e+00	7.991128e-06	1.319011e+00
4.040850693428181e-02	1.439600e+00	1.061854e-05	1.447430e+00
4.236163193428181e-02	1.571407e+00	1.391457e-05	1.580773e+00
4.431475693428181e-02	1.707781e+00	1.800377e-05	1.718889e+00
4.626788193428181e-02	1.848550e+00	2.302596e-05	1.861621e+00
4.822100693428181e-02	1.993543e+00	2.913707e-05	2.008815e+00
5.017413193428181e-02	2.142587e+00	3.651008e-05	2.160312e+00
5.212725693428181e-02	2.295505e+00	4.533583e-05	2.315953e+00
5.408038193428181e-02	2.452121e+00	5.582385e-05	2.475577e+00
5.603350693428181e-02	2.612257e+00	6.820321e-05	2.639021e+00
5.798663193428181e-02	2.775734e+00	8.272323e-05	2.806123e+00
5.993975693428181e-02	2.942371e+00	9.965429e-05	2.976717e+00
6.384600693428180e-02	3.284397e+00	1.419403e-04	3.327722e+00
6.775225693428180e-02	3.636877e+00	1.976704e-04	3.690700e+00
7.165850693428180e-02	3.998344e+00	2.698315e-04	4.064305e+00
7.556475693428180e-02	4.367323e+00	3.618048e-04	4.447186e+00
7.947100693428180e-02	4.742342e+00	4.773798e-04	4.837981e+00
8.337725693428180e-02	5.121935e+00	6.207656e-04	5.235331e+00
8.923663193428180e-02	5.696706e+00	8.982492e-04	5.840671e+00
9.509600693428180e-02	6.273610e+00	1.266311e-03	6.453139e+00
1.009553819342818e-01	6.847866e+00	1.744612e-03	7.068214e+00
1.068147569342818e-01	7.414812e+00	2.354970e-03	7.681452e+00
1.160223462199961e-01	8.284421e+00	3.647066e-03	8.635710e+00
1.252299355057104e-01	9.103873e+00	5.422854e-03	9.553678e+00
1.344375247914247e-01	9.859611e+00	7.792527e-03	1.042177e+01
1.436451140771390e-01	1.053966e+01	1.087781e-02	1.122774e+01
1.528527033628533e-01	1.113364e+01	1.481194e-02	1.196064e+01
1.620602926485675e-01	1.163275e+01	1.973972e-02	1.261088e+01
1.712678819342818e-01	1.202977e+01	2.581743e-02	1.317018e+01
1.824285962199961e-01	1.235011e+01	3.499912e-02	1.370002e+01
1.935893105057104e-01	1.250231e+01	4.610905e-02	1.406693e+01
2.047500247914247e-01	1.248320e+01	5.935413e-02	1.426410e+01
2.159107390771390e-01	1.229319e+01	7.495058e-02	1.428792e+01
2.270714533628533e-01	1.193621e+01	9.312399e-02	1.413794e+01
2.382321676485675e-01	1.141974e+01	1.141093e-01	1.381692e+01
2.493928819342818e-01	1.075479e+01	1.381506e-01	1.333079e+01
2.625067212199961e-01	9.797296e+00	1.702266e-01	1.255036e+01
2.756205605057104e-01	8.732921e+00	2.052428e-01	1.161575e+01
2.887343997914247e-01	7.588453e+00	2.430907e-01	1.054792e+01
3.018482390771389e-01	6.394588e+00	2.836630e-01	9.371879e+00
3.149620783628532e-01	5.185934e+00	3.268536e-01	8.116662e+00
3.280759176485675e-01	4.001006e+00	3.725577e-01	6.815371e+00
3.411897569342818e-01	2.882230e+00	4.206715e-01	5.505148e+00
3.487232390771389e-01	2.301505e+00	4.481504e-01	4.780833e+00
3.562567212199961e-01	1.774365e+00	4.754334e-01	4.086744e+00
3.637902033628532e-01	1.305668e+00	5.024273e-01	3.427976e+00
3.713236855057104e-01	9.003867e-01	5.290428e-01	2.809782e+00
3.788571676485675e-01	5.636096e-01	5.551940e-01	2.237576e+00
3.863906497914247e-01	3.005400e-01	5.807987e-01	1.716930e+00
3.939241319342818e-01	1.164957e-01	6.057781e-01	1.253576e+00
3.975513640771389e-01	5.816251e-02	6.173654e-01	1.054514e+00
4.011785962199961e-01	1.977210e-02	6.286755e-01	8.714296e-01
4.048058283628532e-01	1.571921e-03	6.396978e-01	7.046907e-01
4.084330605057104e-01	3.810404e-03	6.504221e-01	5.546660e-01
4.120602926485675e-01	2.673699e-02	6.608387e-01	4.217273e-01
4.156875247914246e-01	7.060213e-02	6.709381e-01	3.062488e-01
4.193147569342818e-01	1.356573e-01	6.807113e-01	2.086073e-01
4.218259176485675e-01	1.930943e-01	6.872558e-01	1.517757e-01
4.243370783628532e-01	2.606764e-01	6.936134e-01	1.038578e-01
4.268482390771389e-01	3.384171e-01	6.997812e-01	6.491947e-02
4.293593997914246e-01	4.263299e-01	7.057562e-01	3.502643e-02
4.318705605057104e-01	5.244285e-01	7.115355e-01	1.424474e-02
4.343817212199961e-01	6.327263e-01	7.171167e-01	2.640568e-03
4.368928819342818e-01	7.512369e-01	7.224969e-01	2.802632e-04
4.416361855057103e-01	1.003063e+00	7.320984e-01	2.128765e-02
4.463794890771389e-01	1.289909e+00	7.408784e-01	7.562432e-02
4.511227926485675e-01	1.611308e+00	7.488211e-01	1.632392e-01
4.558660962199961e-01	1.966795e+00	7.559123e-01	2.840812e-01
4.606093997914246e-01	2.355908e+00	7.621394e-01	4.380993e-01
4.653527033628532e-01	2.778184e+00	7.674913e-01	6.252425e-01
4.700960069342818e-01	3.233166e+00	7.719587e-01	8.454598e-01
4.731652033628532e-01	3.543450e+00	7.743375e-01	1.004888e+00
4.762343997914246e-01	3.865798e+00	7.763149e-01	1.177390e+00
4.793035962199961e-01	4.199937e+00	7.778893e-01	1.362810e+00
4.823727926485675e-01	4.545593e+00	7.790596e-01	1.560990e+00
4.854419890771389e-01	4.902495e+00	7.798247e-01	1.771776e+00
4.885111855057104e-01	5.270373e+00	7.801842e-01	1.995012e+00
4.915803819342818e-01	5.648961e+00	7.801376e-01	2.230543e+00
4.943705605057103e-01	6.001637e+00	7.797345e-01	2.454856e+00
4.971607390771389e-01	6.361809e+00	7.789871e-01	2.688485e+00
4.999509176485675e-01	6.729203e+00	7.778961e-01	2.931241e+00
5.027410962199961e-01	7.103548e+00	7.764620e-01	3.182932e+00
5.055312747914247e-01	7.484575e+00	7.746859e-01	3.443373e+00
5.083214533628532e-01	7.872015e+00	7.725690e-01	3.712374e+00
5.111116319342818e-01	8.265606e+00	7.701126e-01	3.989751e+00
5.189241319342818e-01	9.400961e+00	7.613939e-01	4.811529e+00
5.267366319342818e-01	1.056235e+01	7.500777e-01	5.683009e+00
5.345491319342818e-01	1.174179e+01	7.362234e-01	6.597682e+00
5.423616319342818e-01	1.293164e+01	7.199049e-01	7.549235e+00
5.501741319342818e-01	1.412455e+01	7.012096e-01	8.531550e+00
5.579866319342818e-01	1.531349e+01	6.802391e-01	9.538701e+00
5.657991319342818e-01	1.649173e+01	6.571091e-01	1.056496e+01
5.772388640771389e-01	1.816555e+01	6.193539e-01	1.207643e+01
5.886785962199961e-01	1.972487e+01	5.784656e-01	1.354755e+01
6.001183283628532e-01	2.114611e+01	5.348864e-01	1.495470e+01
6.115580605057104e-01	2.240857e+01	4.891050e-01	1.627645e+01
6.229977926485675e-01	2.349444e+01	4.416569e-01	1.749359e+01
6.344375247914247e-01	2.438880e+01	3.931242e-01	1.858908e+01
6.458772569342818e-01	2.507962e+01	3.441357e-01	1.954812e+01
6.514576140771389e-01	2.532367e+01	3.206044e-01	1.994555e+01
6.570379712199961e-01	2.550997e+01	2.974056e-01	2.029854e+01
6.626183283628532e-01	2.563786e+01	2.745968e-01	2.060583e+01
6.681986855057104e-01	2.570692e+01	2.522368e-01	2.086632e+01
6.737790426485675e-01	2.571689e+01	2.303854e-01	2.107909e+01
6.793593997914247e-01	2.566774e+01	2.091040e-01	2.124338e+01
6.849397569342818e-01	2.555964e+01	1.884551e-01	2.135864e+01
6.907991319342818e-01	2.538255e+01	1.676502e-01	2.142448e+01
6.969375247914247e-01	2.512704e+01	1.467753e-01	2.143297e+01
7.030759176485675e-01	2.480397e+01	1.270777e-01	2.138026e+01
7.092143105057104e-01	2.441468e+01	1.086044e-01	2.126657e+01
7.153527033628532e-01	2.396078e+01	9.140311e-02	2.109240e+01
7.214910962199961e-01	2.344419e+01	7.552186e-02	2.085848e+01
7.276294890771390e-01	2.286712e+01	6.100933e-02	2.056584e+01
7.337678819342818e-01	2.223204e+01	4.791470e-02	2.021575e+01
7.399062747914247e-01	2.154274e+01	3.633557e-02	1.980959e+01
7.460446676485675e-01	2.080731e+01	2.634606e-02	1.935286e+01
7.521830605057104e-01	2.002875e+01	1.795107e-02	1.884747e+01
7.583214533628532e-01	1.921029e+01	1.115551e-02	1.829559e+01
7.644598462199961e-01	1.835539e+01	5.964289e-03	1.769960e+01
7.705982390771390e-01	1.746773e+01	2.382329e-03	1.706212e+01
7.767366319342818e-01	1.655125e+01	4.145518e-04	1.638600e+01
7.806428819342818e-01	1.595863e+01	5.628037e-06	1.593969e+01
7.865022569342818e-01	1.505684e+01	6.005625e-04	1.524763e+01
7.934777033628532e-01	1.396340e+01	3.185379e-03	1.438838e+01
8.004531497914247e-01	1.286758e+01	7.736572e-03	1.350635e+01
8.074285962199961e-01	1.177484e+01	1.417582e-02	1.260613e+01
8.144040426485675e-01	1.069084e+01	2.242583e-02	1.169256e+01
8.213794890771389e-01	9.621486e+00	3.241033e-02	1.077074e+01
8.283549355057104e-01	8.572882e+00	4.405409e-02	9.846033e+00
8.353303819342818e-01	7.551363e+00	5.728290e-02	8.924036e+00
8.450960069342818e-01	6.181524e+00	7.821440e-02	7.650398e+00
8.548616319342818e-01	4.921065e+00	1.013487e-01	6.434849e+00
8.646272569342818e-01	3.779973e+00	1.263040e-01	5.288197e+00
8.743928819342818e-01	2.768465e+00	1.527146e-01	4.221619e+00
8.841585069342818e-01	1.896993e+00	1.802312e-01	3.246664e+00
8.939241319342818e-01	1.176236e+00	2.085206e-01	2.375251e+00
9.036897569342818e-01	6.171081e-01	2.372659e-01	1.619668e+00
9.073169890771389e-01	4.551616e-01	2.477995e-01	1.374642e+00
9.109442212199961e-01	3.176552e-01	2.582568e-01	1.148753e+00
9.145714533628532e-01	2.046834e-01	2.686190e-01	9.422666e-01
9.181986855057104e-01	1.163410e-01	2.788680e-01	7.554521e-01
9.218259176485675e-01	5.272277e-02	2.889861e-01	5.885784e-01
9.254531497914247e-01	1.392372e-02	2.989563e-01	4.419162e-01
9.290803819342818e-01	3.895339e-05	3.087620e-01	3.157370e-01
9.318705605057104e-01	6.343325e-03	3.161658e-01	2.329426e-01
9.346607390771389e-01	2.735922e-02	3.234378e-01	1.626587e-01
9.374509176485675e-01	6.302231e-02	3.305704e-01	1.049177e-01
9.402410962199961e-01	1.132684e-01	3.375564e-01	5.975208e-02
9.430312747914247e-01	1.780332e-01	3.443888e-01	2.719420e-02
9.458214533628532e-01	2.572528e-01	3.510608e-01	7.276577e-03
9.486116319342818e-01	3.508633e-01	3.575659e-01	3.170834e-05
9.525178819342818e-01	5.058673e-01	3.663719e-01	1.122686e-02
9.564241319342818e-01	6.880408e-01	3.747925e-01	4.721026e-02
9.603303819342818e-01	8.969102e-01	3.828111e-01	1.078046e-01
9.642366319342818e-01	1.132004e+00	3.904119e-01	1.928329e-01
9.681428819342818e-01	1.392855e+00	3.975802e-01	3.021187e-01
9.720491319342818e-01	1.678997e+00	4.043022e-01	4.354860e-01
9.759553819342818e-01	1.989967e+00	4.105651e-01	5.927590e-01
9.793035962199961e-01	2.275220e+00	4.155434e-01	7.460759e-01
9.826518105057104e-01	2.576955e+00	4.201532e-01	9.160355e-01
9.860000247914247e-01	2.894696e+00	4.243878e-01	1.102353e+00
9.893482390771389e-01	3.227974e+00	4.282413e-01	1.304746e+00
9.926964533628532e-01	3.576323e+00	4.317082e-01	1.522933e+00
9.960446676485675e-01	3.939281e+00	4.347836e-01	1.756635e+00
9.993928819342818e-01	4.316389e+00	4.374632e-01	2.005572e+00
1.002462078362853e+00	4.673487e+00	4.395626e-01	2.246490e+00
1.005531274791425e+00	5.040677e+00	4.413192e-01	2.499013e+00
1.008600471219996e+00	5.417503e+00	4.427308e-01	2.762819e+00
1.011669667648567e+00	5.803515e+00	4.437957e-01	3.037591e+00
1.014738864077139e+00	6.198266e+00	4.445129e-01	3.323014e+00
1.017808060505710e+00	6.601314e+00	4.448813e-01	3.618776e+00
1.020877256934282e+00	7.012225e+00	4.449005e-01	3.924567e+00
1.026457614077139e+00	7.777951e+00	4.440263e-01	4.505196e+00
1.032037971219996e+00	8.560341e+00	4.420173e-01	5.111950e+00
1.037618328362853e+00	9.356167e+00	4.388812e-01	5.742273e+00
1.043198685505710e+00	1.016229e+01	4.346302e-01	6.393669e+00
1.048779042648568e+00	1.097568e+01	4.292808e-01	7.063696e+00
1.054359399791425e+00	1.179338e+01	4.228537e-01	7.749971e+00
1.059939756934282e+00	1.261253e+01	4.153742e-01	8.450166e+00
1.070821453362853e+00	1.420015e+01	3.976710e-01	9.845145e+00
1.081703149791425e+00	1.572348e+01	3.768574e-01	1.123186e+01
1.092584846219996e+00	1.715895e+01	3.532183e-01	1.258840e+01
1.103466542648568e+00	1.848540e+01	3.270874e-01	1.389463e+01
1.114348239077139e+00	1.968407e+01	2.988464e-01	1.513213e+01
1.125229935505710e+00	2.073853e+01	2.689257e-01	1.628427e+01
1.136111631934282e+00	2.163478e+01	2.378042e-01	1.733613e+01
1.141412971219996e+00	2.199653e+01	2.225968e-01	1.779358e+01
1.146714310505710e+00	2.231087e+01	2.074352e-01	1.821572e+01
1.152015649791425e+00	2.257673e+01	1.923686e-01	1.860110e+01
1.157316989077139e+00	2.279321e+01	1.774477e-01	1.894842e+01
1.162618328362853e+00	2.295958e+01	1.627246e-01	1.925652e+01
1.167919667648568e+00	2.307530e+01	1.482530e-01	1.952437e+01
1.173221006934282e+00	2.313997e+01	1.340880e-01	1.975111e+01
1.176011185505710e+00	2.315292e+01	1.268076e-01	1.985280e+01
1.178801364077139e+00	2.315152e+01	1.196559e-01	1.994239e+01
1.181591542648568e+00	2.313578e+01	1.126396e-01	2.001980e+01
1.184381721219996e+00	2.310571e+01	1.057652e-01	2.008496e+01
1.187171899791425e+00	2.306133e+01	9.903945e-02	2.013780e+01
1.189962078362853e+00	2.300269e+01	9.246920e-02	2.017829e+01
1.192752256934282e+00	2.292985e+01	8.606128e-02	2.020637e+01
1.200843774791425e+00	2.263561e+01	6.839940e-02	2.021542e+01
1.208935292648568e+00	2.222972e+01	5.253085e-02	2.012101e+01
1.217026810505710e+00	2.171530e+01	3.855409e-02	1.992386e+01
1.225118328362853e+00	2.109628e+01	2.656911e-02	1.962551e+01
1.233209846219996e+00	2.037750e+01	1.667747e-02	1.922826e+01
1.241301364077139e+00	1.956466e+01	8.982259e-03	1.873523e+01
1.249392881934282e+00	1.866431e+01	3.588107e-03	1.815033e+01
1.263064756934282e+00	1.698774e+01	9.116663e-07	1.697987e+01
1.266971006934282e+00	1.647607e+01	2.544977e-04	1.660584e+01
1.270877256934282e+00	1.595336e+01	1.078081e-03	1.621673e+01
1.274783506934282e+00	1.542052e+01	2.468964e-03	1.581324e+01
1.278689756934282e+00	1.487851e+01	4.424453e-03	1.539608e+01
1.282596006934282e+00	1.432831e+01	6.941859e-03	1.496601e+01
1.286502256934282e+00	1.377094e+01	1.001850e-02	1.452382e+01
1.290408506934282e+00	1.320745e+01	1.365169e-02	1.407035e+01
1.300174131934282e+00	1.177136e+01	2.519474e-02	1.288573e+01
1.309939756934282e+00	1.034783e+01	3.987513e-02	1.167242e+01
1.319705381934282e+00	8.950819e+00	5.746454e-02	1.044265e+01
1.329471006934282e+00	7.595014e+00	7.773985e-02	9.209551e+00
1.339236631934282e+00	6.295807e+00	1.004831e-01	7.987041e+00
1.349002256934282e+00	5.069295e+00	1.254815e-01	6.789898e+00
1.358767881934282e+00	3.932290e+00	1.525275e-01	5.633729e+00
1.366580381934282e+00	3.108731e+00	1.750846e-01	4.759337e+00
1.374392881934282e+00	2.372785e+00	1.981812e-01	3.942450e+00
1.382205381934282e+00	1.728374e+00	2.216346e-01	3.187857e+00
1.390017881934282e+00	1.179469e+00	2.452697e-01	2.500449e+00
1.397830381934282e+00	7.300973e-01	2.689194e-01	1.885216e+00
1.405642881934282e+00	3.843342e-01	2.924241e-01	1.347247e+00
1.413455381934282e+00	1.463082e-01	3.156324e-01	8.917295e-01
1.417082614077139e+00	7.420223e-02	3.261294e-01	7.114556e-01
1.420709846219996e+00	2.633856e-02	3.364456e-01	5.510552e-01
1.424337078362853e+00	2.722208e-03	3.465648e-01	4.107174e-01
1.427964310505710e+00	3.358150e-03	3.564711e-01	2.906315e-01
1.431591542648568e+00	2.825136e-02	3.661494e-01	1.909877e-01
1.435218774791425e+00	7.740683e-02	3.755849e-01	1.119765e-01
1.438846006934282e+00	1.508295e-01	3.847635e-01	5.378933e-02
1.441357167648568e+00	2.157246e-01	3.909441e-01	2.585460e-02
1.443868328362853e+00	2.920286e-01	3.969765e-01	8.039645e-03
1.446379489077139e+00	3.796691e-01	4.028560e-01	3.436025e-04
1.448890649791425e+00	4.785740e-01	4.085784e-01	2.765602e-03
1.451401810505710e+00	5.886712e-01	4.141394e-01	1.530477e-02
1.453912971219996e+00	7.098889e-01	4.195349e-01	3.796025e-02
1.456424131934282e+00	8.421553e-01	4.247610e-01	7.073116e-02
1.462283506934282e+00	1.193733e+00	4.362748e-01	1.866844e-01
1.468142881934282e+00	1.601320e+00	4.467260e-01	3.564773e-01
1.474002256934282e+00	2.062802e+00	4.560717e-01	5.789919e-01
1.479861631934282e+00	2.576090e+00	4.642740e-01	8.531180e-01
1.485721006934282e+00	3.139119e+00	4.712998e-01	1.177753e+00
1.491580381934282e+00	3.749850e+00	4.771212e-01	1.551802e+00
1.497439756934282e+00	4.406267e+00	4.817151e-01	1.974177e+00
1.500229935505710e+00	4.732246e+00	4.834426e-01	2.190614e+00
1.503020114077139e+00	5.066605e+00	4.848772e-01	2.416722e+00
1.505810292648568e+00	5.409018e+00	4.860176e-01	2.652273e+00
1.508600471219996e+00	5.759160e+00	4.868626e-01	2.897041e+00
1.511390649791425e+00	6.116711e+00	4.874116e-01	3.150802e+00
1.514180828362853e+00	6.481352e+00	4.876640e-01	3.413332e+00
1.516971006934282e+00	6.852768e+00	4.876196e-01	3.684409e+00
1.522830381934282e+00	7.653789e+00	4.865434e-01	4.280850e+00
1.528689756934282e+00	8.474563e+00	4.841749e-01	4.907481e+00
1.534549131934282e+00	9.311442e+00	4.805234e-01	5.561426e+00
1.540408506934282e+00	1.016088e+01	4.756036e-01	6.239873e+00
1.546267881934282e+00	1.101945e+01	4.694353e-01	6.940074e+00
1.552127256934282e+00	1.188381e+01	4.620435e-01	7.659346e+00
1.557986631934282e+00	1.275074e+01	4.534585e-01	8.395070e+00
1.569147346219996e+00	1.439340e+01	4.337011e-01	9.830129e+00
1.580308060505710e+00	1.596899e+01	4.105873e-01	1.125838e+01
1.591468774791425e+00	1.745228e+01	3.844325e-01	1.265628e+01
1.602629489077139e+00	1.882063e+01	3.556045e-01	1.400219e+01
1.613790203362853e+00	2.005402e+01	3.245237e-01	1.527638e+01
1.624950917648568e+00	2.113497e+01	2.916628e-01	1.646104e+01
1.636111631934282e+00	2.204866e+01	2.575469e-01	1.754026e+01
1.641691989077139e+00	2.242290e+01	2.404574e-01	1.801933e+01
1.647272346219996e+00	2.274404e+01	2.234413e-01	1.845884e+01
1.652852703362853e+00	2.301088e+01	2.065562e-01	1.885714e+01
1.658433060505710e+00	2.322242e+01	1.898612e-01	1.921274e+01
1.664013417648568e+00	2.337791e+01	1.734175e-01	1.952434e+01
1.669593774791425e+00	2.347675e+01	1.572878e-01	1.979081e+01
1.675174131934282e+00	2.351860e+01	1.415368e-01	2.001116e+01
1.677964310505710e+00	2.351756e+01	1.338612e-01	2.010285e+01
1.680754489077139e+00	2.350211e+01	1.263260e-01	2.018232e+01
1.683544667648568e+00	2.347227e+01	1.189377e-01	2.024951e+01
1.686334846219996e+00	2.342806e+01	1.117028e-01	2.030435e+01
1.689125024791425e+00	2.336952e+01	1.046280e-01	2.034679e+01
1.691915203362853e+00	2.329671e+01	9.772002e-02	2.037679e+01
1.694705381934282e+00	2.320970e+01	9.098549e-02	2.039432e+01
1.702796899791425e+00	2.287440e+01	7.243687e-02	2.037238e+01
1.710888417648568e+00	2.242819e+01	5.577698e-02	2.024703e+01
1.718979935505710e+00	2.187445e+01	4.109926e-02	2.001921e+01
1.727071453362853e+00	2.121739e+01	2.849853e-02	1.969068e+01
1.735162971219996e+00	2.046209e+01	1.807093e-02	1.926398e+01
1.743254489077139e+00	1.961447e+01	9.913940e-03	1.874244e+01
1.751346006934282e+00	1.868133e+01	4.126379e-03	1.813017e+01
1.753857167648568e+00	1.837790e+01	2.840536e-03	1.792377e+01
